T594C 003:367 SEGGER J-Link V6.30h Log File (0001ms, 1469ms total)
T594C 003:367 DLL Compiled: Mar 16 2018 18:02:51 (0001ms, 1469ms total)
T594C 003:367 Logging started @ 2018-04-16 15:04 (0001ms, 1469ms total)
T594C 003:368 JLINK_SetWarnOutHandler(...) (0000ms, 1469ms total)
T594C 003:368 JLINK_OpenEx(...)
Firmware: Energy Micro EFM32 compiled Apr 20 2016 12:17:23
Hardware: V1.00
S/N: 440045308
Feature(s): RDI
TELNET listener socket opened on port 19021WEBSRV 
Starting webserver (0110ms, 1579ms total)
T594C 003:368 WEBSRV Webserver running on local port 19080 (0110ms, 1579ms total)
T594C 003:368   returns O.K. (0110ms, 1579ms total)
T594C 003:478 JLINK_GetEmuCaps()  returns 0xB8EA5A33 (0000ms, 1579ms total)
T594C 003:479 JLINK_TIF_GetAvailable(...) (0000ms, 1579ms total)
T594C 003:479 JLINK_SetErrorOutHandler(...) (0000ms, 1579ms total)
T594C 003:479 JLINK_ExecCommand("ProjectFile = "C:\Keil_v5\BTS\BTS_Sky_Buffer\JLinkSettings.ini"", ...).   returns 0x00 (0003ms, 1582ms total)
T594C 003:482 JLINK_ExecCommand("Device = EFM32WG230F256", ...). Device "EFM32WG230F256" selected.  returns 0x00 (0002ms, 1584ms total)
T594C 003:485 JLINK_ExecCommand("DisableConnectionTimeout", ...).   returns 0x01 (0000ms, 1584ms total)
T594C 003:485 JLINK_GetHardwareVersion()  returns 0x2710 (0000ms, 1584ms total)
T594C 003:485 JLINK_GetDLLVersion()  returns 63008 (0000ms, 1584ms total)
T594C 003:485 JLINK_GetFirmwareString(...) (0000ms, 1584ms total)
T594C 003:485 JLINK_GetDLLVersion()  returns 63008 (0000ms, 1584ms total)
T594C 003:485 JLINK_GetCompileDateTime() (0000ms, 1584ms total)
T594C 003:485 JLINK_GetFirmwareString(...) (0000ms, 1584ms total)
T594C 003:485 JLINK_GetHardwareVersion()  returns 0x2710 (0000ms, 1584ms total)
T594C 003:485 JLINK_TIF_Select(JLINKARM_TIF_SWD)  returns 0x00 (0000ms, 1584ms total)
T594C 003:485 JLINK_SetSpeed(50000) (0000ms, 1584ms total)
T594C 003:485 JLINK_GetId() >0x10B TIF>Found SW-DP with ID 0x2BA01477 >0x0D TIF> >0x28 TIF> >0x0D TIF> >0x28 TIF> >0x0D TIF> >0x28 TIF> >0x0D TIF> >0x28 TIF> >0x0D TIF> >0x28 TIF> >0x0D TIF> >0x21 TIF> >0x0D TIF> >0x21 TIF> >0x0D TIF> >0x28 TIF> >0x0D TIF> >0x21 TIF> >0x0D TIF> >0x21 TIF> >0x10B TIF>Found SW-DP with ID 0x2BA01477 >0x0D TIF> >0x28 TIF> >0x0D TIF> >0x28 TIF> >0x0D TIF> >0x28 TIF> >0x0D TIF> >0x28 TIF> >0x0D TIF> >0x21 TIF> >0x0D TIF> >0x28 TIF>Scanning AP map to find all available APs
 >0x0D TIF> >0x28 TIF> >0x0D TIF> >0x21 TIF> >0x0D TIF> >0x21 TIF> >0x0D TIF> >0x28 TIF> >0x0D TIF> >0x21 TIF> >0x0D TIF> >0x21 TIF>AP[1]: Stopped AP scan as end of AP map has been reachedAP[0]: AHB-AP (IDR: 0x24770011)Iterating through AP map to find AHB-AP to use >0x42 TIF> >0x28 TIF> >0x0D TIF> >0x28 TIF> >0x0D TIF> >0x21 TIF> >0x0D TIF> >0x21 TIF> >0x42 TIF> >0x28 TIF> >0x0D TIF> >0x28 TIF> >0x0D TIF> >0x28 TIF> >0x0D TIF> >0x21 TIF> >0x0D TIF> >0x21 TIF>AP[0]: Core found
AP[0]: AHB-AP ROM base: 0xE00FF000 >0x0D TIF> >0x28 TIF> >0x0D TIF> >0x28 TIF> >0x0D TIF> >0x28 TIF> >0x0D TIF> >0x21 TIF> >0x0D TIF> >0x21 TIF>CPUID register: 0x410FC241. Implementer code: 0x41 (ARM)Found Cortex-M4 r0p1, Little endian. -- CPU_ReadMem(4 bytes @ 0xE000EDF0) -- CPU_ReadMem(4 bytes @ 0xE0002000)FPUnit: 6 code (BP) slots and 2 literal slots -- CPU_ReadMem(4 bytes @ 0xE000EDFC) -- CPU_ReadMem(4 bytes @ 0xE0001000) -- CPU_WriteMem(4 bytes @ 0xE0001000) -- CPU_ReadMem(4 bytes @ 0xE000ED88)
 -- CPU_WriteMem(4 bytes @ 0xE000ED88) -- CPU_ReadMem(4 bytes @ 0xE000ED88) -- CPU_WriteMem(4 bytes @ 0xE000ED88)CoreSight components:ROMTbl[0] @ E00FF000 -- CPU_ReadMem(16 bytes @ 0xE00FF000) -- CPU_ReadMem(16 bytes @ 0xE000EFF0) -- CPU_ReadMem(16 bytes @ 0xE000EFE0)ROMTbl[0][0]: E000E000, CID: B105E00D, PID: 000BB00C SCS-M7 -- CPU_ReadMem(16 bytes @ 0xE0001FF0) -- CPU_ReadMem(16 bytes @ 0xE0001FE0)ROMTbl[0][1]: E0001000, CID: B105E00D, PID: 003BB002 DWT -- CPU_ReadMem(16 bytes @ 0xE0002FF0)
 -- CPU_ReadMem(16 bytes @ 0xE0002FE0)ROMTbl[0][2]: E0002000, CID: B105E00D, PID: 002BB003 FPB -- CPU_ReadMem(16 bytes @ 0xE0000FF0) -- CPU_ReadMem(16 bytes @ 0xE0000FE0)ROMTbl[0][3]: E0000000, CID: B105E00D, PID: 003BB001 ITM -- CPU_ReadMem(16 bytes @ 0xE00FF010) -- CPU_ReadMem(16 bytes @ 0xE0040FF0) -- CPU_ReadMem(16 bytes @ 0xE0040FE0)ROMTbl[0][4]: E0040000, CID: B105900D, PID: 003BB923 TPIU-Lite -- CPU_ReadMem(16 bytes @ 0xE0041FF0) -- CPU_ReadMem(16 bytes @ 0xE0041FE0)
ROMTbl[0][5]: E0041000, CID: B105900D, PID: 000BB925 ETM >0x0D TIF> >0x21 TIF>  returns 0x2BA01477 (0167ms, 1751ms total)
T594C 003:652 JLINK_GetDLLVersion()  returns 63008 (0000ms, 1751ms total)
T594C 003:652 JLINK_CORE_GetFound()  returns 0xE0000FF (0000ms, 1751ms total)
T594C 003:652 JLINK_GetDebugInfo(0x100 = JLINKARM_ROM_TABLE_ADDR_INDEX) -- Value=0xE00FF000  returns 0x00 (0000ms, 1751ms total)
T594C 003:652 JLINK_GetDebugInfo(0x100 = JLINKARM_ROM_TABLE_ADDR_INDEX) -- Value=0xE00FF000  returns 0x00 (0000ms, 1751ms total)
T594C 003:652 JLINK_GetDebugInfo(0x101 = JLINKARM_DEBUG_INFO_ETM_ADDR_INDEX) -- Value=0xE0041000  returns 0x00 (0000ms, 1751ms total)
T594C 003:652 JLINK_ReadMemEx(0xE0041FD0, 0x0020 Bytes, ..., Flags = 0x02000004) -- CPU_ReadMem(32 bytes @ 0xE0041FD0) - Data: 04 00 00 00 00 00 00 00 00 00 00 00 00 00 00 00 ...  returns 0x20 (0002ms, 1753ms total)
T594C 003:654 JLINK_GetDebugInfo(0x102 = JLINKARM_DEBUG_INFO_MTB_ADDR_INDEX) -- Value=0x00000000  returns 0x00 (0000ms, 1753ms total)
T594C 003:654 JLINK_GetDebugInfo(0x103 = JLINKARM_DEBUG_INFO_TPIU_ADDR_INDEX) -- Value=0xE0040000  returns 0x00 (0000ms, 1753ms total)
T594C 003:654 JLINK_GetDebugInfo(0x104 = JLINKARM_DEBUG_INFO_ITM_ADDR_INDEX) -- Value=0xE0000000  returns 0x00 (0000ms, 1753ms total)
T594C 003:654 JLINK_GetDebugInfo(0x105 = JLINKARM_DEBUG_INFO_DWT_ADDR_INDEX) -- Value=0xE0001000  returns 0x00 (0000ms, 1753ms total)
T594C 003:654 JLINK_GetDebugInfo(0x106 = JLINKARM_DEBUG_INFO_FPB_ADDR_INDEX) -- Value=0xE0002000  returns 0x00 (0000ms, 1753ms total)
T594C 003:654 JLINK_GetDebugInfo(0x107 = JLINKARM_DEBUG_INFO_NVIC_ADDR_INDEX) -- Value=0xE000E000  returns 0x00 (0000ms, 1753ms total)
T594C 003:654 JLINK_GetDebugInfo(0x10C = JLINKARM_DEBUG_INFO_DBG_ADDR_INDEX) -- Value=0xE000EDF0  returns 0x00 (0000ms, 1753ms total)
T594C 003:654 JLINK_GetDebugInfo(0x01 = Unknown) -- Value=0x00000001  returns 0x00 (0000ms, 1753ms total)
T594C 003:654 JLINK_ReadMemU32(0xE000ED00, 0x0001 Items, ...) -- CPU_ReadMem(4 bytes @ 0xE000ED00) - Data: 41 C2 0F 41  returns 0x01 (0001ms, 1754ms total)
T594C 003:655 JLINK_GetDebugInfo(0x10F = JLINKARM_DEBUG_INFO_HAS_CORTEX_M_SECURITY_EXT_INDEX) -- Value=0x00000000  returns 0x00 (0000ms, 1754ms total)
T594C 003:655 JLINK_SetResetType(JLINKARM_CM3_RESET_TYPE_NORMAL)  returns JLINKARM_CM3_RESET_TYPE_NORMAL (0000ms, 1754ms total)
T594C 003:655 JLINK_Reset() -- CPU is running -- CPU_WriteMem(4 bytes @ 0xE000EDF0) -- CPU is running -- CPU_WriteMem(4 bytes @ 0xE000EDFC)Reset: Halt core after reset via DEMCR.VC_CORERESET. >0x35 TIF>Reset: Reset device via AIRCR.SYSRESETREQ. -- CPU is running -- CPU_WriteMem(4 bytes @ 0xE000ED0C) >0x0D TIF> >0x28 TIF> -- CPU_ReadMem(4 bytes @ 0xE000EDF0) -- CPU_ReadMem(4 bytes @ 0xE000EDF0) -- CPU is running -- CPU_WriteMem(4 bytes @ 0xE000EDF0) -- CPU is running -- CPU_WriteMem(4 bytes @ 0xE000EDFC)
 -- CPU_ReadMem(4 bytes @ 0xE000EDF0) -- CPU_WriteMem(4 bytes @ 0xE0002000) -- CPU_ReadMem(4 bytes @ 0xE000EDFC) -- CPU_ReadMem(4 bytes @ 0xE0001000) (0075ms, 1829ms total)
T594C 003:730 JLINK_ReadReg(R15 (PC))  returns 0x00000234 (0001ms, 1830ms total)
T594C 003:731 JLINK_ReadReg(XPSR)  returns 0x01000000 (0000ms, 1830ms total)
T594C 003:731 JLINK_Halt()  returns 0x00 (0000ms, 1830ms total)
T594C 003:731 JLINK_ReadMemU32(0xE000EDF0, 0x0001 Items, ...) -- CPU_ReadMem(4 bytes @ 0xE000EDF0) - Data: 03 00 03 00  returns 0x01 (0001ms, 1831ms total)
T594C 003:732 JLINK_WriteU32(0xE000EDF0, 0xA05F0003) -- CPU_WriteMem(4 bytes @ 0xE000EDF0)  returns 0x00 (0002ms, 1833ms total)
T594C 003:734 JLINK_WriteU32(0xE000EDFC, 0x01000000) -- CPU_WriteMem(4 bytes @ 0xE000EDFC)  returns 0x00 (0001ms, 1834ms total)
T594C 003:735 JLINK_GetHWStatus(...)  returns 0x00 (0000ms, 1834ms total)
T594C 003:735 JLINK_GetNumBPUnits(Type = 0xFFFFFF00)  returns 0x06 (0000ms, 1834ms total)
T594C 003:735 JLINK_GetNumBPUnits(Type = 0xF0)  returns 0x2000 (0000ms, 1834ms total)
T594C 003:735 JLINK_GetNumWPUnits()  returns 0x04 (0000ms, 1834ms total)
T594C 003:735 JLINK_GetSpeed()  returns 0x2EE0 (0000ms, 1834ms total)
T594C 003:735 JLINK_ReadMemU32(0xE000E004, 0x0001 Items, ...) -- CPU_ReadMem(4 bytes @ 0xE000E004) - Data: 01 00 00 00  returns 0x01 (0002ms, 1836ms total)
T594C 003:737 JLINK_ReadMemU32(0xE000E004, 0x0001 Items, ...) -- CPU_ReadMem(4 bytes @ 0xE000E004) - Data: 01 00 00 00  returns 0x01 (0001ms, 1837ms total)
T594C 003:738 JLINK_WriteMemEx(0xE0001000, 0x001C Bytes, ..., Flags = 0x02000004) - Data: 01 00 00 00 00 00 00 00 00 00 00 00 00 00 00 00 ... -- CPU_WriteMem(28 bytes @ 0xE0001000)  returns 0x1C (0002ms, 1839ms total)
T594C 003:740 JLINK_ReadReg(R15 (PC))  returns 0x00000234 (0000ms, 1839ms total)
T594C 003:740 JLINK_ReadReg(XPSR)  returns 0x01000000 (0000ms, 1839ms total)
T594C 003:741 JLINK_WriteU32(0xE0041FB0, 0xC5ACCE55) -- CPU_WriteMem(4 bytes @ 0xE0041FB0)  returns 0x00 (0000ms, 1839ms total)
T594C 003:741 JLINK_ReadMemU32(0xE0041000, 0x0001 Items, ...) -- CPU_ReadMem(4 bytes @ 0xE0041000) - Data: 00 00 00 00  returns 0x01 (0002ms, 1841ms total)
T594C 003:747 JLINK_SWO_Control(JLINKARM_SWO_CMD_GET_SPEED_INFO, ...)  returns 0x00 (0001ms, 1842ms total)
T594C 003:748 JLINK_SWO_Control(JLINKARM_SWO_CMD_STOP, ...)  returns 0x00 (0000ms, 1842ms total)
T594C 003:748 JLINK_SWO_Control(JLINKARM_SWO_CMD_START, ...) -- UART -- 1111111bps  returns 0x00 (0003ms, 1845ms total)
T594C 003:751 JLINK_WriteU32(0xE0040004, 0x00000001) -- CPU_WriteMem(4 bytes @ 0xE0040004)  returns 0x00 (0001ms, 1846ms total)
T594C 003:753 JLINK_WriteU32(0xE0040010, 0x00000008)  returns 0x00 (0000ms, 1846ms total)
T594C 003:753 JLINK_WriteU32(0xE00400F0, 0x00000002)  returns 0x00 (0000ms, 1846ms total)
T594C 003:753 JLINK_WriteU32(0xE0040304, 0x00000000)  returns 0x00 (0000ms, 1846ms total)
T594C 003:753 JLINK_WriteU32(0xE0000FB0, 0xC5ACCE55) -- CPU_WriteMem(4 bytes @ 0xE0000FB0)  returns 0x00 (0000ms, 1846ms total)
T594C 003:753 JLINK_WriteU32(0xE0000E80, 0x0001000D)  returns 0x00 (0000ms, 1846ms total)
T594C 003:753 JLINK_WriteU32(0xE0000E00, 0xFFFFFFFF)  returns 0x00 (0000ms, 1846ms total)
T594C 003:753 JLINK_WriteU32(0xE0000E40, 0x00000008)  returns 0x00 (0001ms, 1847ms total)
T594C 003:754 JLINK_WriteU32(0xE0001000, 0x0001061F)  returns 0x00 (0000ms, 1847ms total)
T594C 003:871 JLINK_SetResetType(JLINKARM_CM3_RESET_TYPE_NORMAL)  returns JLINKARM_CM3_RESET_TYPE_NORMAL (0001ms, 1848ms total)
T594C 003:872 JLINK_Reset() -- CPU_WriteMem(4 bytes @ 0xE0000E00) -- CPU_WriteMem(4 bytes @ 0xE0000E40) -- CPU_WriteMem(4 bytes @ 0xE0000E80) -- CPU_WriteMem(4 bytes @ 0xE0001000) -- CPU_WriteMem(4 bytes @ 0xE0040010) -- CPU_WriteMem(4 bytes @ 0xE00400F0) -- CPU_WriteMem(4 bytes @ 0xE0040304) -- CPU_WriteMem(4 bytes @ 0xE000EDF0) -- CPU_WriteMem(4 bytes @ 0xE000EDFC)Reset: Halt core after reset via DEMCR.VC_CORERESET. >0x35 TIF>Reset: Reset device via AIRCR.SYSRESETREQ.
 -- CPU_WriteMem(4 bytes @ 0xE000ED0C) >0x0D TIF> >0x28 TIF> -- CPU_ReadMem(4 bytes @ 0xE000EDF0) -- CPU_ReadMem(4 bytes @ 0xE000EDF0) -- CPU_WriteMem(4 bytes @ 0xE000EDF0) -- CPU_WriteMem(4 bytes @ 0xE000EDFC) -- CPU_ReadMem(4 bytes @ 0xE000EDF0) -- CPU_WriteMem(4 bytes @ 0xE0002000) -- CPU_ReadMem(4 bytes @ 0xE000EDFC) -- CPU_ReadMem(4 bytes @ 0xE0001000) (0077ms, 1925ms total)
T594C 003:950 JLINK_WriteU32(0xE000EDFC, 0x01000000) -- CPU_WriteMem(4 bytes @ 0xE000EDFC)  returns 0x00 (0001ms, 1926ms total)
T594C 003:951 JLINK_ReadReg(R15 (PC))  returns 0x00000234 (0000ms, 1926ms total)
T594C 003:951 JLINK_ReadReg(XPSR)  returns 0x01000000 (0000ms, 1926ms total)
T594C 003:956 JLINK_ReadMemEx(0x00000234, 0x003C Bytes, ..., Flags = 0x02000000) -- CPU_ReadMem(128 bytes @ 0x00000200) -- Updating C cache (128 bytes @ 0x00000200) -- Read from C cache (60 bytes @ 0x00000234) - Data: 09 48 80 47 09 48 00 47 FE E7 FE E7 FE E7 FE E7 ...  returns 0x3C (0002ms, 1928ms total)
T594C 004:026 JLINK_WriteU32(0xE0001008, 0x00000000)  returns 0x00 (0000ms, 1928ms total)
T594C 004:026 JLINK_WriteU32(0xE000100C, 0x00000000)  returns 0x00 (0000ms, 1928ms total)
T594C 004:026 JLINK_WriteU32(0xE0001010, 0x00000000)  returns 0x00 (0000ms, 1928ms total)
T594C 004:026 JLINK_WriteU32(0xE0001014, 0x00000000)  returns 0x00 (0000ms, 1928ms total)
T594C 004:026 JLINK_WriteU32(0xE0001018, 0x00000000)  returns 0x00 (0000ms, 1928ms total)
T594C 005:240 JLINK_ReadReg(R0)  returns 0x00000000 (0001ms, 1929ms total)
T594C 005:241 JLINK_ReadReg(R1)  returns 0x019005A4 (0000ms, 1929ms total)
T594C 005:241 JLINK_ReadReg(R2)  returns 0x00000001 (0000ms, 1929ms total)
T594C 005:241 JLINK_ReadReg(R3)  returns 0x00000200 (0000ms, 1929ms total)
T594C 005:241 JLINK_ReadReg(R4)  returns 0x400C8000 (0000ms, 1929ms total)
T594C 005:241 JLINK_ReadReg(R5)  returns 0x00000003 (0000ms, 1929ms total)
T594C 005:241 JLINK_ReadReg(R6)  returns 0x00000003 (0000ms, 1929ms total)
T594C 005:241 JLINK_ReadReg(R7)  returns 0x00000000 (0000ms, 1929ms total)
T594C 005:241 JLINK_ReadReg(R8)  returns 0x00000002 (0000ms, 1929ms total)
T594C 005:241 JLINK_ReadReg(R9)  returns 0x200001BC (0000ms, 1929ms total)
T594C 005:241 JLINK_ReadReg(R10)  returns 0x00008924 (0000ms, 1929ms total)
T594C 005:241 JLINK_ReadReg(R11)  returns 0x00008924 (0000ms, 1929ms total)
T594C 005:241 JLINK_ReadReg(R12)  returns 0x00000100 (0000ms, 1929ms total)
T594C 005:241 JLINK_ReadReg(R13 (SP))  returns 0x20008000 (0000ms, 1929ms total)
T594C 005:241 JLINK_ReadReg(R14)  returns 0xFFFFFFFF (0000ms, 1929ms total)
T594C 005:241 JLINK_ReadReg(R15 (PC))  returns 0x00000234 (0000ms, 1929ms total)
T594C 005:241 JLINK_ReadReg(XPSR)  returns 0x01000000 (0000ms, 1929ms total)
T594C 005:241 JLINK_ReadReg(MSP)  returns 0x20008000 (0000ms, 1929ms total)
T594C 005:241 JLINK_ReadReg(PSP)  returns 0x20008000 (0000ms, 1929ms total)
T594C 005:241 JLINK_ReadReg(CFBP)  returns 0x00000000 (0000ms, 1929ms total)
T594C 005:241 JLINK_ReadReg(FPSCR)  returns 0x00000000 (0011ms, 1940ms total)
T594C 005:252 JLINK_ReadReg(FPS0)  returns 0x005B8D80 (0000ms, 1940ms total)
T594C 005:252 JLINK_ReadReg(FPS1)  returns 0x49742400 (0000ms, 1940ms total)
T594C 005:252 JLINK_ReadReg(FPS2)  returns 0x80002000 (0000ms, 1940ms total)
T594C 005:252 JLINK_ReadReg(FPS3)  returns 0x0300C042 (0000ms, 1940ms total)
T594C 005:252 JLINK_ReadReg(FPS4)  returns 0x20000000 (0000ms, 1940ms total)
T594C 005:252 JLINK_ReadReg(FPS5)  returns 0x00888000 (0000ms, 1940ms total)
T594C 005:252 JLINK_ReadReg(FPS6)  returns 0x00180080 (0000ms, 1940ms total)
T594C 005:252 JLINK_ReadReg(FPS7)  returns 0x00420010 (0000ms, 1940ms total)
T594C 005:252 JLINK_ReadReg(FPS8)  returns 0x72418088 (0000ms, 1940ms total)
T594C 005:252 JLINK_ReadReg(FPS9)  returns 0x20100000 (0000ms, 1940ms total)
T594C 005:253 JLINK_ReadReg(FPS10)  returns 0x80000000 (0000ms, 1941ms total)
T594C 005:253 JLINK_ReadReg(FPS11)  returns 0x00105804 (0000ms, 1941ms total)
T594C 005:253 JLINK_ReadReg(FPS12)  returns 0x80000104 (0000ms, 1941ms total)
T594C 005:253 JLINK_ReadReg(FPS13)  returns 0x0020B3C0 (0000ms, 1941ms total)
T594C 005:253 JLINK_ReadReg(FPS14)  returns 0x04080401 (0000ms, 1941ms total)
T594C 005:253 JLINK_ReadReg(FPS15)  returns 0x10040020 (0000ms, 1941ms total)
T594C 005:253 JLINK_ReadReg(FPS16)  returns 0x41200000 (0000ms, 1941ms total)
T594C 005:253 JLINK_ReadReg(FPS17)  returns 0x02010000 (0000ms, 1941ms total)
T594C 005:253 JLINK_ReadReg(FPS18)  returns 0x40200000 (0000ms, 1941ms total)
T594C 005:253 JLINK_ReadReg(FPS19)  returns 0x80400100 (0000ms, 1941ms total)
T594C 005:253 JLINK_ReadReg(FPS20)  returns 0x00000802 (0000ms, 1941ms total)
T594C 005:253 JLINK_ReadReg(FPS21)  returns 0xA0040043 (0000ms, 1941ms total)
T594C 005:253 JLINK_ReadReg(FPS22)  returns 0x00040010 (0000ms, 1941ms total)
T594C 005:253 JLINK_ReadReg(FPS23)  returns 0x01402080 (0000ms, 1941ms total)
T594C 005:253 JLINK_ReadReg(FPS24)  returns 0x40200020 (0000ms, 1941ms total)
T594C 005:253 JLINK_ReadReg(FPS25)  returns 0x00203000 (0000ms, 1941ms total)
T594C 005:253 JLINK_ReadReg(FPS26)  returns 0x00020000 (0000ms, 1941ms total)
T594C 005:253 JLINK_ReadReg(FPS27)  returns 0x80061122 (0000ms, 1941ms total)
T594C 005:253 JLINK_ReadReg(FPS28)  returns 0x00040810 (0000ms, 1941ms total)
T594C 005:253 JLINK_ReadReg(FPS29)  returns 0x00200240 (0000ms, 1941ms total)
T594C 005:253 JLINK_ReadReg(FPS30)  returns 0x20001100 (0000ms, 1941ms total)
T594C 005:253 JLINK_ReadReg(FPS31)  returns 0x00040200 (0000ms, 1941ms total)
T594C 005:317 JLINK_ReadMemEx(0x20000B80, 0x0020 Bytes, ..., Flags = 0x02000000) -- CPU_ReadMem(64 bytes @ 0x20000B80) -- Updating C cache (64 bytes @ 0x20000B80) -- Read from C cache (32 bytes @ 0x20000B80) - Data: 00 00 00 00 00 00 00 00 00 00 00 00 00 00 00 00 ...  returns 0x20 (0002ms, 1943ms total)
T594C 005:322 JLINK_ReadMemEx(0x20000158, 0x0001 Bytes, ..., Flags = 0x02000000) -- CPU_ReadMem(64 bytes @ 0x20000140) -- Updating C cache (64 bytes @ 0x20000140) -- Read from C cache (1 bytes @ 0x20000158) - Data: 00  returns 0x01 (0002ms, 1945ms total)
T594C 005:338 JLINK_ReadMemEx(0x20000188, 0x0008 Bytes, ..., Flags = 0x02000000) -- CPU_ReadMem(64 bytes @ 0x20000180) -- Updating C cache (64 bytes @ 0x20000180) -- Read from C cache (8 bytes @ 0x20000188) - Data: 00 00 00 00 00 00 00 00  returns 0x08 (0003ms, 1948ms total)
T594C 005:349 JLINK_ReadMemEx(0x20000917, 0x0010 Bytes, ..., Flags = 0x02000000) -- CPU_ReadMem(64 bytes @ 0x20000900) -- Updating C cache (64 bytes @ 0x20000900) -- Read from C cache (16 bytes @ 0x20000917) - Data: 00 00 00 00 00 00 00 00 00 00 00 00 00 00 00 00  returns 0x10 (0001ms, 1949ms total)
T2528 005:375 JLINK_ReadMemEx(0x00000234, 0x0002 Bytes, ..., Flags = 0x02000000) -- Read from C cache (2 bytes @ 0x00000234) - Data: 09 48  returns 0x02 (0000ms, 1949ms total)
T2528 005:375 JLINK_SetBPEx(Addr = 0x00002C48, Type = 0xFFFFFFF2)  returns 0x00000001 (0000ms, 1949ms total)
T2528 005:375 JLINK_SetBPEx(Addr = 0x000063DE, Type = 0xFFFFFFF2)  returns 0x00000002 (0000ms, 1949ms total)
T2528 005:375 JLINK_SetBPEx(Addr = 0x000063E6, Type = 0xFFFFFFF2)  returns 0x00000003 (0000ms, 1949ms total)
T2528 005:375 JLINK_SetBPEx(Addr = 0x00003D32, Type = 0xFFFFFFF2)  returns 0x00000004 (0000ms, 1949ms total)
T2528 005:375 JLINK_ReadMemU32(0xE0001004, 0x0001 Items, ...) - Data: 00 00 00 00  returns 0x01 (0000ms, 1949ms total)
T2528 005:375 JLINK_WriteU32(0xE0001004, 0x000003FF)  returns 0x00 (0000ms, 1949ms total)
T2528 005:375 JLINK_WriteU32(0xE0001000, 0x0041061F)  returns 0x00 (0000ms, 1949ms total)
T2528 005:375 JLINK_WriteU32(0xE0000E80, 0x0001000F)  returns 0x00 (0000ms, 1949ms total)
T2528 005:375 JLINK_SWO_Control(JLINKARM_SWO_CMD_GET_NUM_BYTES, ...)  returns 0x00 (0000ms, 1949ms total)
T2528 005:375 JLINK_Go() -- CPU_WriteMem(4 bytes @ 0xE0002000) -- CPU_WriteMem(4 bytes @ 0xE0002000) -- CPU_WriteMem(4 bytes @ 0xE0002000) -- CPU_WriteMem(4 bytes @ 0xE0002000) -- CPU_WriteMem(4 bytes @ 0xE0001000) -- CPU_ReadMem(4 bytes @ 0xE0001000) -- CPU_WriteMem(4 bytes @ 0xE0000E80) -- CPU_WriteMem(4 bytes @ 0xE0001008) -- CPU_WriteMem(4 bytes @ 0xE000100C) -- CPU_WriteMem(4 bytes @ 0xE0001010) -- CPU_WriteMem(4 bytes @ 0xE0001014) -- CPU_WriteMem(4 bytes @ 0xE0001018)
 -- CPU_WriteMem(4 bytes @ 0xE0002008) -- CPU_WriteMem(4 bytes @ 0xE000200C) -- CPU_WriteMem(4 bytes @ 0xE0002010) -- CPU_WriteMem(4 bytes @ 0xE0002014) -- CPU_WriteMem(4 bytes @ 0xE0002018) -- CPU_WriteMem(4 bytes @ 0xE000201C) -- CPU_WriteMem(4 bytes @ 0xE0001004) (0011ms, 1960ms total)
T2528 005:387 JLINK_WriteU32(0xE0001000, 0x0001061F) -- CPU is running -- CPU_WriteMem(4 bytes @ 0xE0001000)  returns 0x00 (0001ms, 1961ms total)
T2528 005:488 JLINK_SWO_Read(..., Offset = 0x00, NumBytes = 0x400000) - Data:  NumBytesRead = 0x00 (0000ms, 1961ms total)
T2528 005:490 JLINK_SWO_Control(JLINKARM_SWO_CMD_FLUSH, ...)  returns 0x00 (0000ms, 1961ms total)
T2528 005:490 JLINK_IsHalted()  returns FALSE (0000ms, 1961ms total)
T2528 005:591 JLINK_SWO_Read(..., Offset = 0x00, NumBytes = 0x400000) - Data:  NumBytesRead = 0x00 (0000ms, 1961ms total)
T2528 005:592 JLINK_SWO_Control(JLINKARM_SWO_CMD_FLUSH, ...)  returns 0x00 (0000ms, 1961ms total)
T2528 005:592 JLINK_IsHalted()  returns FALSE (0001ms, 1962ms total)
T2528 005:694 JLINK_SWO_Read(..., Offset = 0x00, NumBytes = 0x400000) - Data:  NumBytesRead = 0x00 (0000ms, 1961ms total)
T2528 005:697 JLINK_SWO_Control(JLINKARM_SWO_CMD_FLUSH, ...)  returns 0x00 (0000ms, 1961ms total)
T2528 005:697 JLINK_IsHalted()  returns FALSE (0001ms, 1962ms total)
T2528 005:799 JLINK_SWO_Read(..., Offset = 0x00, NumBytes = 0x400000) - Data:  NumBytesRead = 0x00 (0000ms, 1961ms total)
T2528 005:800 JLINK_SWO_Control(JLINKARM_SWO_CMD_FLUSH, ...)  returns 0x00 (0000ms, 1961ms total)
T2528 005:800 JLINK_IsHalted()  returns FALSE (0001ms, 1962ms total)
T2528 005:902 JLINK_SWO_Read(..., Offset = 0x00, NumBytes = 0x400000) - Data:  NumBytesRead = 0x00 (0000ms, 1961ms total)
T2528 005:904 JLINK_SWO_Control(JLINKARM_SWO_CMD_FLUSH, ...)  returns 0x00 (0000ms, 1961ms total)
T2528 005:904 JLINK_IsHalted()  returns FALSE (0001ms, 1962ms total)
T2528 006:005 JLINK_SWO_Read(..., Offset = 0x00, NumBytes = 0x400000) - Data:  NumBytesRead = 0x00 (0000ms, 1961ms total)
T2528 006:006 JLINK_SWO_Control(JLINKARM_SWO_CMD_FLUSH, ...)  returns 0x00 (0000ms, 1961ms total)
T2528 006:006 JLINK_IsHalted()  returns FALSE (0001ms, 1962ms total)
T2528 006:108 JLINK_SWO_Read(..., Offset = 0x00, NumBytes = 0x400000) - Data:  NumBytesRead = 0x00 (0000ms, 1961ms total)
T2528 006:109 JLINK_SWO_Control(JLINKARM_SWO_CMD_FLUSH, ...)  returns 0x00 (0000ms, 1961ms total)
T2528 006:109 JLINK_IsHalted()  returns FALSE (0001ms, 1962ms total)
T2528 006:211 JLINK_SWO_Read(..., Offset = 0x00, NumBytes = 0x400000) - Data:  NumBytesRead = 0x00 (0000ms, 1961ms total)
T2528 006:212 JLINK_SWO_Control(JLINKARM_SWO_CMD_FLUSH, ...)  returns 0x00 (0000ms, 1961ms total)
T2528 006:212 JLINK_IsHalted()  returns FALSE (0002ms, 1963ms total)
T2528 006:314 JLINK_SWO_Read(..., Offset = 0x00, NumBytes = 0x400000) - Data:  NumBytesRead = 0x00 (0000ms, 1961ms total)
T2528 006:315 JLINK_SWO_Control(JLINKARM_SWO_CMD_FLUSH, ...)  returns 0x00 (0000ms, 1961ms total)
T2528 006:315 JLINK_IsHalted()  returns FALSE (0001ms, 1962ms total)
T2528 006:417 JLINK_SWO_Read(..., Offset = 0x00, NumBytes = 0x400000) - Data:  NumBytesRead = 0x00 (0000ms, 1961ms total)
T2528 006:418 JLINK_SWO_Control(JLINKARM_SWO_CMD_FLUSH, ...)  returns 0x00 (0000ms, 1961ms total)
T2528 006:418 JLINK_IsHalted()  returns FALSE (0001ms, 1962ms total)
T2528 006:520 JLINK_SWO_Read(..., Offset = 0x00, NumBytes = 0x400000) - Data:  NumBytesRead = 0x00 (0000ms, 1961ms total)
T2528 006:522 JLINK_SWO_Control(JLINKARM_SWO_CMD_FLUSH, ...)  returns 0x00 (0000ms, 1961ms total)
T2528 006:522 JLINK_IsHalted()  returns TRUE (0006ms, 1967ms total)
T2528 006:529 JLINK_Halt()  returns 0x00 (0000ms, 1961ms total)
T2528 006:529 JLINK_IsHalted()  returns TRUE (0000ms, 1961ms total)
T2528 006:529 JLINK_IsHalted()  returns TRUE (0000ms, 1961ms total)
T2528 006:529 JLINK_IsHalted()  returns TRUE (0000ms, 1961ms total)
T2528 006:529 JLINK_ReadReg(R15 (PC))  returns 0x00002C48 (0000ms, 1961ms total)
T2528 006:529 JLINK_ReadReg(XPSR)  returns 0x61000000 (0000ms, 1961ms total)
T2528 006:529 JLINK_SWO_Read(..., Offset = 0x00, NumBytes = 0x400000) - Data:  NumBytesRead = 0x00 (0000ms, 1961ms total)
T2528 006:531 JLINK_SWO_Control(JLINKARM_SWO_CMD_FLUSH, ...)  returns 0x00 (0000ms, 1961ms total)
T2528 006:531 JLINK_ClrBPEx(BPHandle = 0x00000001)  returns 0x00 (0000ms, 1961ms total)
T2528 006:531 JLINK_ClrBPEx(BPHandle = 0x00000002)  returns 0x00 (0000ms, 1961ms total)
T2528 006:531 JLINK_ClrBPEx(BPHandle = 0x00000003)  returns 0x00 (0000ms, 1961ms total)
T2528 006:531 JLINK_ClrBPEx(BPHandle = 0x00000004)  returns 0x00 (0000ms, 1961ms total)
T2528 006:531 JLINK_ReadMemU32(0xE000ED30, 0x0001 Items, ...) -- CPU_ReadMem(4 bytes @ 0xE000ED30) - Data: 02 00 00 00  returns 0x01 (0001ms, 1962ms total)
T2528 006:532 JLINK_ReadMemU32(0xE0001028, 0x0001 Items, ...) -- CPU_ReadMem(4 bytes @ 0xE0001028) - Data: 00 00 00 00  returns 0x01 (0001ms, 1963ms total)
T2528 006:533 JLINK_ReadMemU32(0xE0001038, 0x0001 Items, ...) -- CPU_ReadMem(4 bytes @ 0xE0001038) - Data: 00 02 00 00  returns 0x01 (0001ms, 1964ms total)
T2528 006:534 JLINK_ReadMemU32(0xE0001048, 0x0001 Items, ...) -- CPU_ReadMem(4 bytes @ 0xE0001048) - Data: 00 00 00 00  returns 0x01 (0001ms, 1965ms total)
T2528 006:535 JLINK_ReadMemU32(0xE0001058, 0x0001 Items, ...) -- CPU_ReadMem(4 bytes @ 0xE0001058) - Data: 00 00 00 00  returns 0x01 (0001ms, 1966ms total)
T2528 006:537 JLINK_ReadReg(R0)  returns 0x20001F60 (0000ms, 1966ms total)
T2528 006:537 JLINK_ReadReg(R1)  returns 0x20007FF8 (0000ms, 1966ms total)
T2528 006:537 JLINK_ReadReg(R2)  returns 0x00000004 (0000ms, 1966ms total)
T2528 006:537 JLINK_ReadReg(R3)  returns 0x00000001 (0000ms, 1966ms total)
T2528 006:537 JLINK_ReadReg(R4)  returns 0x00000000 (0000ms, 1966ms total)
T2528 006:537 JLINK_ReadReg(R5)  returns 0x00000000 (0000ms, 1966ms total)
T2528 006:537 JLINK_ReadReg(R6)  returns 0x00000000 (0000ms, 1966ms total)
T2528 006:537 JLINK_ReadReg(R7)  returns 0x00008903 (0000ms, 1966ms total)
T2528 006:537 JLINK_ReadReg(R8)  returns 0x00000002 (0000ms, 1966ms total)
T2528 006:537 JLINK_ReadReg(R9)  returns 0x200001BC (0000ms, 1966ms total)
T2528 006:537 JLINK_ReadReg(R10)  returns 0x00008924 (0000ms, 1966ms total)
T2528 006:537 JLINK_ReadReg(R11)  returns 0x00008924 (0000ms, 1966ms total)
T2528 006:537 JLINK_ReadReg(R12)  returns 0x00000010 (0000ms, 1966ms total)
T2528 006:538 JLINK_ReadReg(R13 (SP))  returns 0x20008000 (0000ms, 1967ms total)
T2528 006:538 JLINK_ReadReg(R14)  returns 0x0000022F (0000ms, 1967ms total)
T2528 006:538 JLINK_ReadReg(R15 (PC))  returns 0x00002C48 (0000ms, 1967ms total)
T2528 006:538 JLINK_ReadReg(XPSR)  returns 0x61000000 (0000ms, 1967ms total)
T2528 006:538 JLINK_ReadReg(MSP)  returns 0x20008000 (0000ms, 1967ms total)
T2528 006:538 JLINK_ReadReg(PSP)  returns 0x20008000 (0000ms, 1967ms total)
T2528 006:538 JLINK_ReadReg(CFBP)  returns 0x04000000 (0000ms, 1967ms total)
T2528 006:538 JLINK_ReadReg(FPSCR)  returns 0x03000000 (0012ms, 1979ms total)
T2528 006:550 JLINK_ReadReg(FPS0)  returns 0x005B8D80 (0000ms, 1979ms total)
T2528 006:550 JLINK_ReadReg(FPS1)  returns 0x49742400 (0000ms, 1979ms total)
T2528 006:550 JLINK_ReadReg(FPS2)  returns 0x80002000 (0000ms, 1979ms total)
T2528 006:551 JLINK_ReadReg(FPS3)  returns 0x0300C042 (0000ms, 1979ms total)
T2528 006:551 JLINK_ReadReg(FPS4)  returns 0x20000000 (0000ms, 1979ms total)
T2528 006:551 JLINK_ReadReg(FPS5)  returns 0x00888000 (0000ms, 1979ms total)
T2528 006:551 JLINK_ReadReg(FPS6)  returns 0x00180080 (0000ms, 1979ms total)
T2528 006:551 JLINK_ReadReg(FPS7)  returns 0x00420010 (0000ms, 1979ms total)
T2528 006:551 JLINK_ReadReg(FPS8)  returns 0x72418088 (0000ms, 1979ms total)
T2528 006:551 JLINK_ReadReg(FPS9)  returns 0x20100000 (0000ms, 1979ms total)
T2528 006:551 JLINK_ReadReg(FPS10)  returns 0x80000000 (0000ms, 1979ms total)
T2528 006:551 JLINK_ReadReg(FPS11)  returns 0x00105804 (0000ms, 1979ms total)
T2528 006:551 JLINK_ReadReg(FPS12)  returns 0x80000104 (0000ms, 1979ms total)
T2528 006:551 JLINK_ReadReg(FPS13)  returns 0x0020B3C0 (0000ms, 1979ms total)
T2528 006:551 JLINK_ReadReg(FPS14)  returns 0x04080401 (0000ms, 1979ms total)
T2528 006:551 JLINK_ReadReg(FPS15)  returns 0x10040020 (0000ms, 1979ms total)
T2528 006:551 JLINK_ReadReg(FPS16)  returns 0x41200000 (0000ms, 1979ms total)
T2528 006:552 JLINK_ReadReg(FPS17)  returns 0x02010000 (0000ms, 1979ms total)
T2528 006:552 JLINK_ReadReg(FPS18)  returns 0x40200000 (0000ms, 1979ms total)
T2528 006:552 JLINK_ReadReg(FPS19)  returns 0x80400100 (0000ms, 1979ms total)
T2528 006:552 JLINK_ReadReg(FPS20)  returns 0x00000802 (0000ms, 1979ms total)
T2528 006:552 JLINK_ReadReg(FPS21)  returns 0xA0040043 (0000ms, 1979ms total)
T2528 006:552 JLINK_ReadReg(FPS22)  returns 0x00040010 (0000ms, 1979ms total)
T2528 006:552 JLINK_ReadReg(FPS23)  returns 0x01402080 (0000ms, 1979ms total)
T2528 006:552 JLINK_ReadReg(FPS24)  returns 0x40200020 (0000ms, 1979ms total)
T2528 006:552 JLINK_ReadReg(FPS25)  returns 0x00203000 (0000ms, 1979ms total)
T2528 006:552 JLINK_ReadReg(FPS26)  returns 0x00020000 (0000ms, 1979ms total)
T2528 006:552 JLINK_ReadReg(FPS27)  returns 0x80061122 (0000ms, 1979ms total)
T2528 006:552 JLINK_ReadReg(FPS28)  returns 0x00040810 (0000ms, 1979ms total)
T2528 006:552 JLINK_ReadReg(FPS29)  returns 0x00200240 (0000ms, 1979ms total)
T2528 006:552 JLINK_ReadReg(FPS30)  returns 0x20001100 (0001ms, 1980ms total)
T2528 006:553 JLINK_ReadReg(FPS31)  returns 0x00040200 (0000ms, 1980ms total)
T594C 006:555 JLINK_ReadMemU32(0xE0001004, 0x0001 Items, ...) -- CPU_ReadMem(4 bytes @ 0xE0001004) - Data: 67 30 09 03  returns 0x01 (0001ms, 1981ms total)
T594C 006:557 JLINK_ReadMemEx(0x20000B80, 0x0020 Bytes, ..., Flags = 0x02000000) -- CPU_ReadMem(64 bytes @ 0x20000B80) -- Updating C cache (64 bytes @ 0x20000B80) -- Read from C cache (32 bytes @ 0x20000B80) - Data: 00 00 00 00 00 00 00 00 00 00 00 00 00 00 00 00 ...  returns 0x20 (0002ms, 1983ms total)
T594C 006:559 JLINK_ReadMemEx(0x20000158, 0x0001 Bytes, ..., Flags = 0x02000000) -- CPU_ReadMem(64 bytes @ 0x20000140) -- Updating C cache (64 bytes @ 0x20000140) -- Read from C cache (1 bytes @ 0x20000158) - Data: 00  returns 0x01 (0002ms, 1985ms total)
T594C 006:562 JLINK_ReadMemEx(0x20000188, 0x0008 Bytes, ..., Flags = 0x02000000) -- CPU_ReadMem(64 bytes @ 0x20000180) -- Updating C cache (64 bytes @ 0x20000180) -- Read from C cache (8 bytes @ 0x20000188) - Data: 00 00 00 00 00 00 00 00  returns 0x08 (0002ms, 1987ms total)
T594C 006:566 JLINK_ReadMemEx(0x20000917, 0x0010 Bytes, ..., Flags = 0x02000000) -- CPU_ReadMem(64 bytes @ 0x20000900) -- Updating C cache (64 bytes @ 0x20000900) -- Read from C cache (16 bytes @ 0x20000917) - Data: 00 00 00 00 00 00 00 00 00 00 00 00 00 00 00 00  returns 0x10 (0001ms, 1988ms total)
T594C 006:577 JLINK_ReadMemEx(0x00002C48, 0x003C Bytes, ..., Flags = 0x02000000) -- CPU_ReadMem(128 bytes @ 0x00002C40) -- Updating C cache (128 bytes @ 0x00002C40) -- Read from C cache (60 bytes @ 0x00002C48) - Data: 10 B5 03 F0 7F FC BD E8 10 40 03 F0 A3 BB 00 21 ...  returns 0x3C (0002ms, 1990ms total)
T2528 008:878 JLINK_ReadMemEx(0x00002C48, 0x0002 Bytes, ..., Flags = 0x02000000) -- Read from C cache (2 bytes @ 0x00002C48) - Data: 10 B5  returns 0x02 (0000ms, 1990ms total)
T2528 008:878 JLINK_SetBPEx(Addr = 0x000063DE, Type = 0xFFFFFFF2)  returns 0x00000005 (0000ms, 1990ms total)
T2528 008:878 JLINK_SetBPEx(Addr = 0x000063E6, Type = 0xFFFFFFF2)  returns 0x00000006 (0000ms, 1990ms total)
T2528 008:878 JLINK_SetBPEx(Addr = 0x00003D32, Type = 0xFFFFFFF2)  returns 0x00000007 (0000ms, 1990ms total)
T2528 008:878 JLINK_ReadMemU32(0xE0001004, 0x0001 Items, ...) - Data: 67 30 09 03  returns 0x01 (0000ms, 1990ms total)
T2528 008:878 JLINK_WriteU32(0xE0001004, 0x030933FF)  returns 0x00 (0000ms, 1990ms total)
T2528 008:878 JLINK_WriteU32(0xE0001000, 0x0041061F)  returns 0x00 (0000ms, 1990ms total)
T2528 008:878 JLINK_WriteU32(0xE0000E80, 0x0001000F)  returns 0x00 (0000ms, 1990ms total)
T2528 008:878 JLINK_SWO_Control(JLINKARM_SWO_CMD_GET_NUM_BYTES, ...)  returns 0x00 (0000ms, 1990ms total)
T2528 008:878 JLINK_Go() -- CPU_WriteMem(4 bytes @ 0xE0002000) -- CPU_WriteMem(4 bytes @ 0xE0002000) -- CPU_WriteMem(4 bytes @ 0xE0002000) -- CPU_WriteMem(4 bytes @ 0xE0001000) -- CPU_ReadMem(4 bytes @ 0xE0001000) -- CPU_WriteMem(4 bytes @ 0xE0000E80) -- CPU_WriteMem(4 bytes @ 0xE0002008) -- CPU_WriteMem(4 bytes @ 0xE000200C) -- CPU_WriteMem(4 bytes @ 0xE0002010) -- CPU_WriteMem(4 bytes @ 0xE0002014) -- CPU_WriteMem(4 bytes @ 0xE0001004) (0008ms, 1998ms total)
T2528 008:886 JLINK_WriteU32(0xE0001000, 0x0001061F) -- CPU is running -- CPU_WriteMem(4 bytes @ 0xE0001000)  returns 0x00 (0001ms, 1999ms total)
T2528 008:987 JLINK_SWO_Read(..., Offset = 0x00, NumBytes = 0x400000) - Data:  NumBytesRead = 0x00 (0000ms, 1999ms total)
T2528 008:989 JLINK_SWO_Control(JLINKARM_SWO_CMD_FLUSH, ...)  returns 0x00 (0000ms, 1999ms total)
T2528 008:989 JLINK_IsHalted()  returns TRUE (0006ms, 2005ms total)
T2528 008:995 JLINK_Halt()  returns 0x00 (0000ms, 1999ms total)
T2528 008:995 JLINK_IsHalted()  returns TRUE (0000ms, 1999ms total)
T2528 008:995 JLINK_IsHalted()  returns TRUE (0000ms, 1999ms total)
T2528 008:995 JLINK_IsHalted()  returns TRUE (0000ms, 1999ms total)
T2528 008:995 JLINK_ReadReg(R15 (PC))  returns 0x000063DE (0000ms, 1999ms total)
T2528 008:995 JLINK_ReadReg(XPSR)  returns 0x21000000 (0000ms, 1999ms total)
T2528 008:995 JLINK_SWO_Read(..., Offset = 0x00, NumBytes = 0x400000) - Data:  NumBytesRead = 0x00 (0000ms, 1999ms total)
T2528 008:997 JLINK_SWO_Control(JLINKARM_SWO_CMD_FLUSH, ...)  returns 0x00 (0000ms, 1999ms total)
T2528 008:997 JLINK_ClrBPEx(BPHandle = 0x00000005)  returns 0x00 (0000ms, 1999ms total)
T2528 008:997 JLINK_ClrBPEx(BPHandle = 0x00000006)  returns 0x00 (0000ms, 1999ms total)
T2528 008:997 JLINK_ClrBPEx(BPHandle = 0x00000007)  returns 0x00 (0000ms, 1999ms total)
T2528 008:997 JLINK_ReadMemU32(0xE000ED30, 0x0001 Items, ...) -- CPU_ReadMem(4 bytes @ 0xE000ED30) - Data: 02 00 00 00  returns 0x01 (0000ms, 1999ms total)
T2528 008:997 JLINK_ReadMemU32(0xE0001028, 0x0001 Items, ...) -- CPU_ReadMem(4 bytes @ 0xE0001028) - Data: 00 00 00 00  returns 0x01 (0001ms, 2000ms total)
T2528 008:998 JLINK_ReadMemU32(0xE0001038, 0x0001 Items, ...) -- CPU_ReadMem(4 bytes @ 0xE0001038) - Data: 00 02 00 00  returns 0x01 (0001ms, 2001ms total)
T2528 008:999 JLINK_ReadMemU32(0xE0001048, 0x0001 Items, ...) -- CPU_ReadMem(4 bytes @ 0xE0001048) - Data: 00 00 00 00  returns 0x01 (0000ms, 2001ms total)
T2528 008:999 JLINK_ReadMemU32(0xE0001058, 0x0001 Items, ...) -- CPU_ReadMem(4 bytes @ 0xE0001058) - Data: 00 00 00 00  returns 0x01 (0001ms, 2002ms total)
T2528 009:000 JLINK_ReadReg(R0)  returns 0x200001B0 (0001ms, 2003ms total)
T2528 009:001 JLINK_ReadReg(R1)  returns 0x00000001 (0000ms, 2003ms total)
T2528 009:001 JLINK_ReadReg(R2)  returns 0x40006048 (0000ms, 2003ms total)
T2528 009:001 JLINK_ReadReg(R3)  returns 0x00000001 (0000ms, 2003ms total)
T2528 009:001 JLINK_ReadReg(R4)  returns 0x00000000 (0000ms, 2003ms total)
T2528 009:001 JLINK_ReadReg(R5)  returns 0x00000000 (0000ms, 2003ms total)
T2528 009:001 JLINK_ReadReg(R6)  returns 0x00000000 (0000ms, 2003ms total)
T2528 009:001 JLINK_ReadReg(R7)  returns 0x00008903 (0000ms, 2003ms total)
T2528 009:001 JLINK_ReadReg(R8)  returns 0x00000002 (0000ms, 2003ms total)
T2528 009:001 JLINK_ReadReg(R9)  returns 0x200001BC (0000ms, 2003ms total)
T2528 009:001 JLINK_ReadReg(R10)  returns 0x00008924 (0000ms, 2003ms total)
T2528 009:001 JLINK_ReadReg(R11)  returns 0x00008924 (0000ms, 2003ms total)
T2528 009:001 JLINK_ReadReg(R12)  returns 0x00000040 (0000ms, 2003ms total)
T2528 009:001 JLINK_ReadReg(R13 (SP))  returns 0x20007FF8 (0000ms, 2003ms total)
T2528 009:001 JLINK_ReadReg(R14)  returns 0x00004D81 (0000ms, 2003ms total)
T2528 009:001 JLINK_ReadReg(R15 (PC))  returns 0x000063DE (0000ms, 2003ms total)
T2528 009:001 JLINK_ReadReg(XPSR)  returns 0x21000000 (0000ms, 2003ms total)
T2528 009:001 JLINK_ReadReg(MSP)  returns 0x20007FF8 (0000ms, 2003ms total)
T2528 009:001 JLINK_ReadReg(PSP)  returns 0x20008000 (0000ms, 2003ms total)
T2528 009:001 JLINK_ReadReg(CFBP)  returns 0x04000000 (0000ms, 2003ms total)
T2528 009:001 JLINK_ReadReg(FPSCR)  returns 0x03000000 (0010ms, 2013ms total)
T2528 009:011 JLINK_ReadReg(FPS0)  returns 0x005B8D80 (0000ms, 2013ms total)
T2528 009:011 JLINK_ReadReg(FPS1)  returns 0x49742400 (0000ms, 2013ms total)
T2528 009:011 JLINK_ReadReg(FPS2)  returns 0x80002000 (0000ms, 2013ms total)
T2528 009:011 JLINK_ReadReg(FPS3)  returns 0x0300C042 (0000ms, 2013ms total)
T2528 009:011 JLINK_ReadReg(FPS4)  returns 0x20000000 (0000ms, 2013ms total)
T2528 009:011 JLINK_ReadReg(FPS5)  returns 0x00888000 (0000ms, 2013ms total)
T2528 009:011 JLINK_ReadReg(FPS6)  returns 0x00180080 (0000ms, 2013ms total)
T2528 009:011 JLINK_ReadReg(FPS7)  returns 0x00420010 (0000ms, 2013ms total)
T2528 009:011 JLINK_ReadReg(FPS8)  returns 0x72418088 (0000ms, 2013ms total)
T2528 009:011 JLINK_ReadReg(FPS9)  returns 0x20100000 (0000ms, 2013ms total)
T2528 009:011 JLINK_ReadReg(FPS10)  returns 0x80000000 (0000ms, 2013ms total)
T2528 009:011 JLINK_ReadReg(FPS11)  returns 0x00105804 (0000ms, 2013ms total)
T2528 009:011 JLINK_ReadReg(FPS12)  returns 0x80000104 (0000ms, 2013ms total)
T2528 009:011 JLINK_ReadReg(FPS13)  returns 0x0020B3C0 (0000ms, 2013ms total)
T2528 009:011 JLINK_ReadReg(FPS14)  returns 0x04080401 (0000ms, 2013ms total)
T2528 009:011 JLINK_ReadReg(FPS15)  returns 0x10040020 (0000ms, 2013ms total)
T2528 009:011 JLINK_ReadReg(FPS16)  returns 0x41200000 (0000ms, 2013ms total)
T2528 009:011 JLINK_ReadReg(FPS17)  returns 0x02010000 (0000ms, 2013ms total)
T2528 009:011 JLINK_ReadReg(FPS18)  returns 0x40200000 (0000ms, 2013ms total)
T2528 009:011 JLINK_ReadReg(FPS19)  returns 0x80400100 (0000ms, 2013ms total)
T2528 009:011 JLINK_ReadReg(FPS20)  returns 0x00000802 (0000ms, 2013ms total)
T2528 009:011 JLINK_ReadReg(FPS21)  returns 0xA0040043 (0000ms, 2013ms total)
T2528 009:011 JLINK_ReadReg(FPS22)  returns 0x00040010 (0000ms, 2013ms total)
T2528 009:011 JLINK_ReadReg(FPS23)  returns 0x01402080 (0000ms, 2013ms total)
T2528 009:011 JLINK_ReadReg(FPS24)  returns 0x40200020 (0001ms, 2014ms total)
T2528 009:012 JLINK_ReadReg(FPS25)  returns 0x00203000 (0000ms, 2014ms total)
T2528 009:012 JLINK_ReadReg(FPS26)  returns 0x00020000 (0000ms, 2014ms total)
T2528 009:012 JLINK_ReadReg(FPS27)  returns 0x80061122 (0000ms, 2014ms total)
T2528 009:012 JLINK_ReadReg(FPS28)  returns 0x00040810 (0000ms, 2014ms total)
T2528 009:012 JLINK_ReadReg(FPS29)  returns 0x00200240 (0000ms, 2014ms total)
T2528 009:012 JLINK_ReadReg(FPS30)  returns 0x20001100 (0000ms, 2014ms total)
T2528 009:012 JLINK_ReadReg(FPS31)  returns 0x00040200 (0000ms, 2014ms total)
T594C 009:012 JLINK_ReadMemEx(0x20007FFC, 0x0004 Bytes, ..., Flags = 0x02000000) -- CPU_ReadMem(64 bytes @ 0x20007FC0) -- Updating C cache (64 bytes @ 0x20007FC0) -- Read from C cache (4 bytes @ 0x20007FFC) - Data: 2F 02 00 00  returns 0x04 (0002ms, 2016ms total)
T594C 009:015 JLINK_ReadMemU32(0xE0001004, 0x0001 Items, ...) -- CPU_ReadMem(4 bytes @ 0xE0001004) - Data: 61 35 09 03  returns 0x01 (0002ms, 2018ms total)
T594C 009:017 JLINK_ReadMemEx(0x20000B80, 0x0020 Bytes, ..., Flags = 0x02000000) -- CPU_ReadMem(64 bytes @ 0x20000B80) -- Updating C cache (64 bytes @ 0x20000B80) -- Read from C cache (32 bytes @ 0x20000B80) - Data: 00 00 00 00 00 00 00 00 00 00 00 00 00 00 00 00 ...  returns 0x20 (0001ms, 2019ms total)
T594C 009:018 JLINK_ReadMemEx(0x20000158, 0x0001 Bytes, ..., Flags = 0x02000000) -- CPU_ReadMem(64 bytes @ 0x20000140) -- Updating C cache (64 bytes @ 0x20000140) -- Read from C cache (1 bytes @ 0x20000158) - Data: 00  returns 0x01 (0002ms, 2021ms total)
T594C 009:021 JLINK_ReadMemEx(0x20000188, 0x0008 Bytes, ..., Flags = 0x02000000) -- CPU_ReadMem(64 bytes @ 0x20000180) -- Updating C cache (64 bytes @ 0x20000180) -- Read from C cache (8 bytes @ 0x20000188) - Data: 00 00 00 00 00 00 00 00  returns 0x08 (0001ms, 2022ms total)
T594C 009:023 JLINK_ReadMemEx(0x20000917, 0x0010 Bytes, ..., Flags = 0x02000000) -- CPU_ReadMem(64 bytes @ 0x20000900) -- Updating C cache (64 bytes @ 0x20000900) -- Read from C cache (16 bytes @ 0x20000917) - Data: 00 00 00 00 00 00 00 00 00 00 00 00 00 00 00 00  returns 0x10 (0001ms, 2023ms total)
T594C 009:030 JLINK_ReadMemEx(0x000063D6, 0x0002 Bytes, ..., Flags = 0x02000000) -- CPU_ReadMem(64 bytes @ 0x000063C0) -- Updating C cache (64 bytes @ 0x000063C0) -- Read from C cache (2 bytes @ 0x000063D6) - Data: 01 21  returns 0x02 (0001ms, 2024ms total)
T594C 009:031 JLINK_ReadMemEx(0x000063D8, 0x0028 Bytes, ..., Flags = 0x02000000) -- Read from C cache (40 bytes @ 0x000063D8) - Data: 06 48 FE F7 C9 FC 00 21 05 48 FE F7 C5 FC FD F7 ...  returns 0x28 (0001ms, 2025ms total)
T594C 009:032 JLINK_ReadMemEx(0x00006400, 0x0014 Bytes, ..., Flags = 0x02000000) -- CPU_ReadMem(64 bytes @ 0x00006400) -- Updating C cache (64 bytes @ 0x00006400) -- Read from C cache (20 bytes @ 0x00006400) - Data: 0D 46 06 46 FF F7 9E FC 23 46 2A 46 31 46 03 A0 ...  returns 0x14 (0001ms, 2026ms total)
T2528 013:502 JLINK_ReadMemEx(0x000063DE, 0x0002 Bytes, ..., Flags = 0x02000000) -- Read from C cache (2 bytes @ 0x000063DE) - Data: 00 21  returns 0x02 (0000ms, 2026ms total)
T2528 013:502 JLINK_ReadMemU32(0xE0001004, 0x0001 Items, ...) - Data: 61 35 09 03  returns 0x01 (0000ms, 2026ms total)
T2528 013:502 JLINK_WriteU32(0xE0001004, 0x030937FF)  returns 0x00 (0000ms, 2026ms total)
T2528 013:502 JLINK_WriteU32(0xE0001000, 0x0041061F)  returns 0x00 (0000ms, 2026ms total)
T2528 013:502 JLINK_WriteU32(0xE0000E80, 0x0001000F)  returns 0x00 (0000ms, 2026ms total)
T2528 013:502 JLINK_SWO_Control(JLINKARM_SWO_CMD_GET_NUM_BYTES, ...)  returns 0x00 (0000ms, 2026ms total)
T2528 013:502 JLINK_Step() -- Read from C cache (2 bytes @ 0x000063DE) -- CPU_ReadMem(4 bytes @ 0xE000ED18) -- CPU_WriteMem(4 bytes @ 0xE000ED18) -- CPU_ReadMem(4 bytes @ 0xE000ED18) -- CPU_WriteMem(4 bytes @ 0xE000ED18) -- Simulated  returns 0x00 (0003ms, 2029ms total)
T2528 013:505 JLINK_ReadReg(R15 (PC))  returns 0x000063E0 (0000ms, 2029ms total)
T2528 013:505 JLINK_ReadReg(XPSR)  returns 0x61000000 (0000ms, 2029ms total)
T2528 013:505 JLINK_SetBPEx(Addr = 0x000063DE, Type = 0xFFFFFFF2)  returns 0x00000008 (0000ms, 2029ms total)
T2528 013:505 JLINK_SetBPEx(Addr = 0x000063E6, Type = 0xFFFFFFF2)  returns 0x00000009 (0000ms, 2029ms total)
T2528 013:505 JLINK_SetBPEx(Addr = 0x00003D32, Type = 0xFFFFFFF2)  returns 0x0000000A (0000ms, 2029ms total)
T2528 013:505 JLINK_ReadMemU32(0xE0001004, 0x0001 Items, ...) - Data: 00 38 09 03  returns 0x01 (0000ms, 2029ms total)
T2528 013:505 JLINK_WriteU32(0xE0001004, 0x030937FF)  returns 0x00 (0000ms, 2029ms total)
T2528 013:505 JLINK_WriteU32(0xE0001000, 0x0041061F)  returns 0x00 (0000ms, 2029ms total)
T2528 013:505 JLINK_WriteU32(0xE0000E80, 0x0001000F)  returns 0x00 (0000ms, 2029ms total)
T2528 013:505 JLINK_SWO_Control(JLINKARM_SWO_CMD_GET_NUM_BYTES, ...)  returns 0x00 (0000ms, 2029ms total)
T2528 013:505 JLINK_Go() -- CPU_WriteMem(4 bytes @ 0xE0002000) -- CPU_WriteMem(4 bytes @ 0xE0002000) -- CPU_WriteMem(4 bytes @ 0xE0002000) -- CPU_WriteMem(4 bytes @ 0xE0001000) -- CPU_ReadMem(4 bytes @ 0xE0001000) -- CPU_WriteMem(4 bytes @ 0xE0000E80) -- CPU_WriteMem(4 bytes @ 0xE0001004) (0007ms, 2036ms total)
T2528 013:513 JLINK_WriteU32(0xE0001000, 0x0001061F) -- CPU is running -- CPU_WriteMem(4 bytes @ 0xE0001000)  returns 0x00 (0000ms, 2036ms total)
T2528 013:614 JLINK_SWO_Read(..., Offset = 0x00, NumBytes = 0x400000) - Data:  NumBytesRead = 0x00 (0000ms, 2036ms total)
T2528 013:615 JLINK_SWO_Control(JLINKARM_SWO_CMD_FLUSH, ...)  returns 0x00 (0000ms, 2036ms total)
T2528 013:615 JLINK_IsHalted()  returns TRUE (0007ms, 2043ms total)
T2528 013:622 JLINK_Halt()  returns 0x00 (0000ms, 2036ms total)
T2528 013:622 JLINK_IsHalted()  returns TRUE (0000ms, 2036ms total)
T2528 013:622 JLINK_IsHalted()  returns TRUE (0000ms, 2036ms total)
T2528 013:622 JLINK_IsHalted()  returns TRUE (0000ms, 2036ms total)
T2528 013:622 JLINK_ReadReg(R15 (PC))  returns 0x000063E6 (0000ms, 2036ms total)
T2528 013:623 JLINK_ReadReg(XPSR)  returns 0x61000000 (0000ms, 2036ms total)
T2528 013:623 JLINK_SWO_Read(..., Offset = 0x00, NumBytes = 0x400000) - Data:  NumBytesRead = 0x00 (0000ms, 2036ms total)
T2528 013:624 JLINK_SWO_Control(JLINKARM_SWO_CMD_FLUSH, ...)  returns 0x00 (0000ms, 2036ms total)
T2528 013:624 JLINK_ClrBPEx(BPHandle = 0x00000008)  returns 0x00 (0000ms, 2036ms total)
T2528 013:624 JLINK_ClrBPEx(BPHandle = 0x00000009)  returns 0x00 (0000ms, 2036ms total)
T2528 013:624 JLINK_ClrBPEx(BPHandle = 0x0000000A)  returns 0x00 (0000ms, 2036ms total)
T2528 013:624 JLINK_ReadMemU32(0xE000ED30, 0x0001 Items, ...) -- CPU_ReadMem(4 bytes @ 0xE000ED30) - Data: 02 00 00 00  returns 0x01 (0001ms, 2037ms total)
T2528 013:625 JLINK_ReadMemU32(0xE0001028, 0x0001 Items, ...) -- CPU_ReadMem(4 bytes @ 0xE0001028) - Data: 00 00 00 00  returns 0x01 (0001ms, 2038ms total)
T2528 013:626 JLINK_ReadMemU32(0xE0001038, 0x0001 Items, ...) -- CPU_ReadMem(4 bytes @ 0xE0001038) - Data: 00 02 00 00  returns 0x01 (0000ms, 2038ms total)
T2528 013:626 JLINK_ReadMemU32(0xE0001048, 0x0001 Items, ...) -- CPU_ReadMem(4 bytes @ 0xE0001048) - Data: 00 00 00 00  returns 0x01 (0002ms, 2040ms total)
T2528 013:628 JLINK_ReadMemU32(0xE0001058, 0x0001 Items, ...) -- CPU_ReadMem(4 bytes @ 0xE0001058) - Data: 00 00 00 00  returns 0x01 (0001ms, 2041ms total)
T2528 013:629 JLINK_ReadReg(R0)  returns 0x200001B8 (0000ms, 2041ms total)
T2528 013:629 JLINK_ReadReg(R1)  returns 0x00000000 (0000ms, 2041ms total)
T2528 013:629 JLINK_ReadReg(R2)  returns 0x40006048 (0000ms, 2041ms total)
T2528 013:629 JLINK_ReadReg(R3)  returns 0x00000001 (0001ms, 2042ms total)
T2528 013:630 JLINK_ReadReg(R4)  returns 0x00000000 (0000ms, 2042ms total)
T2528 013:630 JLINK_ReadReg(R5)  returns 0x00000000 (0000ms, 2042ms total)
T2528 013:630 JLINK_ReadReg(R6)  returns 0x00000000 (0000ms, 2042ms total)
T2528 013:630 JLINK_ReadReg(R7)  returns 0x00008903 (0000ms, 2042ms total)
T2528 013:630 JLINK_ReadReg(R8)  returns 0x00000002 (0000ms, 2042ms total)
T2528 013:630 JLINK_ReadReg(R9)  returns 0x200001BC (0000ms, 2042ms total)
T2528 013:630 JLINK_ReadReg(R10)  returns 0x00008924 (0000ms, 2042ms total)
T2528 013:630 JLINK_ReadReg(R11)  returns 0x00008924 (0000ms, 2042ms total)
T2528 013:630 JLINK_ReadReg(R12)  returns 0x00000040 (0000ms, 2042ms total)
T2528 013:630 JLINK_ReadReg(R13 (SP))  returns 0x20007FF8 (0000ms, 2042ms total)
T2528 013:630 JLINK_ReadReg(R14)  returns 0x00004D81 (0000ms, 2042ms total)
T2528 013:630 JLINK_ReadReg(R15 (PC))  returns 0x000063E6 (0000ms, 2042ms total)
T2528 013:630 JLINK_ReadReg(XPSR)  returns 0x61000000 (0000ms, 2042ms total)
T2528 013:630 JLINK_ReadReg(MSP)  returns 0x20007FF8 (0001ms, 2043ms total)
T2528 013:631 JLINK_ReadReg(PSP)  returns 0x20008000 (0000ms, 2043ms total)
T2528 013:631 JLINK_ReadReg(CFBP)  returns 0x04000000 (0000ms, 2043ms total)
T2528 013:631 JLINK_ReadReg(FPSCR)  returns 0x03000000 (0010ms, 2053ms total)
T2528 013:642 JLINK_ReadReg(FPS0)  returns 0x005B8D80 (0000ms, 2053ms total)
T2528 013:642 JLINK_ReadReg(FPS1)  returns 0x49742400 (0000ms, 2053ms total)
T2528 013:642 JLINK_ReadReg(FPS2)  returns 0x80002000 (0000ms, 2053ms total)
T2528 013:642 JLINK_ReadReg(FPS3)  returns 0x0300C042 (0000ms, 2053ms total)
T2528 013:642 JLINK_ReadReg(FPS4)  returns 0x20000000 (0000ms, 2053ms total)
T2528 013:642 JLINK_ReadReg(FPS5)  returns 0x00888000 (0000ms, 2053ms total)
T2528 013:642 JLINK_ReadReg(FPS6)  returns 0x00180080 (0000ms, 2053ms total)
T2528 013:642 JLINK_ReadReg(FPS7)  returns 0x00420010 (0000ms, 2053ms total)
T2528 013:642 JLINK_ReadReg(FPS8)  returns 0x72418088 (0000ms, 2053ms total)
T2528 013:642 JLINK_ReadReg(FPS9)  returns 0x20100000 (0000ms, 2053ms total)
T2528 013:642 JLINK_ReadReg(FPS10)  returns 0x80000000 (0000ms, 2053ms total)
T2528 013:643 JLINK_ReadReg(FPS11)  returns 0x00105804 (0000ms, 2054ms total)
T2528 013:643 JLINK_ReadReg(FPS12)  returns 0x80000104 (0000ms, 2054ms total)
T2528 013:643 JLINK_ReadReg(FPS13)  returns 0x0020B3C0 (0000ms, 2054ms total)
T2528 013:643 JLINK_ReadReg(FPS14)  returns 0x04080401 (0000ms, 2054ms total)
T2528 013:643 JLINK_ReadReg(FPS15)  returns 0x10040020 (0000ms, 2054ms total)
T2528 013:643 JLINK_ReadReg(FPS16)  returns 0x41200000 (0000ms, 2054ms total)
T2528 013:643 JLINK_ReadReg(FPS17)  returns 0x02010000 (0000ms, 2054ms total)
T2528 013:643 JLINK_ReadReg(FPS18)  returns 0x40200000 (0000ms, 2054ms total)
T2528 013:643 JLINK_ReadReg(FPS19)  returns 0x80400100 (0000ms, 2054ms total)
T2528 013:643 JLINK_ReadReg(FPS20)  returns 0x00000802 (0000ms, 2054ms total)
T2528 013:643 JLINK_ReadReg(FPS21)  returns 0xA0040043 (0000ms, 2054ms total)
T2528 013:643 JLINK_ReadReg(FPS22)  returns 0x00040010 (0000ms, 2054ms total)
T2528 013:643 JLINK_ReadReg(FPS23)  returns 0x01402080 (0000ms, 2054ms total)
T2528 013:643 JLINK_ReadReg(FPS24)  returns 0x40200020 (0000ms, 2054ms total)
T2528 013:643 JLINK_ReadReg(FPS25)  returns 0x00203000 (0001ms, 2055ms total)
T2528 013:644 JLINK_ReadReg(FPS26)  returns 0x00020000 (0000ms, 2055ms total)
T2528 013:644 JLINK_ReadReg(FPS27)  returns 0x80061122 (0000ms, 2055ms total)
T2528 013:644 JLINK_ReadReg(FPS28)  returns 0x00040810 (0000ms, 2055ms total)
T2528 013:644 JLINK_ReadReg(FPS29)  returns 0x00200240 (0000ms, 2055ms total)
T2528 013:644 JLINK_ReadReg(FPS30)  returns 0x20001100 (0000ms, 2055ms total)
T2528 013:644 JLINK_ReadReg(FPS31)  returns 0x00040200 (0000ms, 2055ms total)
T594C 013:645 JLINK_ReadMemEx(0x20007FFC, 0x0004 Bytes, ..., Flags = 0x02000000) -- CPU_ReadMem(64 bytes @ 0x20007FC0) -- Updating C cache (64 bytes @ 0x20007FC0) -- Read from C cache (4 bytes @ 0x20007FFC) - Data: 2F 02 00 00  returns 0x04 (0002ms, 2057ms total)
T594C 013:647 JLINK_ReadMemU32(0xE0001004, 0x0001 Items, ...) -- CPU_ReadMem(4 bytes @ 0xE0001004) - Data: 2E 38 09 03  returns 0x01 (0001ms, 2058ms total)
T594C 013:649 JLINK_ReadMemEx(0x20000B80, 0x0020 Bytes, ..., Flags = 0x02000000) -- CPU_ReadMem(64 bytes @ 0x20000B80) -- Updating C cache (64 bytes @ 0x20000B80) -- Read from C cache (32 bytes @ 0x20000B80) - Data: 00 00 00 00 00 00 00 00 00 00 00 00 00 00 00 00 ...  returns 0x20 (0002ms, 2060ms total)
T594C 013:651 JLINK_ReadMemEx(0x20000158, 0x0001 Bytes, ..., Flags = 0x02000000) -- CPU_ReadMem(64 bytes @ 0x20000140) -- Updating C cache (64 bytes @ 0x20000140) -- Read from C cache (1 bytes @ 0x20000158) - Data: 00  returns 0x01 (0001ms, 2061ms total)
